Time[s], Channel 0, Channel 1, Channel 2, Channel 3, Channel 4, Channel 5, Channel 6, Channel 7
0.0000000, 0, 0, 1, 1, 1, 1, 1, 1
0.0000086, 0, 0, 1, 1, 1, 0, 1, 1
0.0000231, 0, 0, 0, 1, 1, 0, 1, 1
0.0000392, 0, 0, 0, 1, 1, 1, 1, 1
0.0000536, 0, 0, 1, 1, 1, 1, 1, 1
0.0000696, 0, 0, 1, 1, 1, 0, 1, 1
0.0000841, 0, 0, 0, 1, 1, 0, 1, 1
0.0001002, 0, 0, 0, 1, 1, 1, 1, 1
0.0001171, 0, 0, 1, 1, 1, 1, 1, 1
0.0001307, 0, 0, 1, 1, 1, 0, 1, 1
0.0001451, 0, 0, 0, 1, 1, 0, 1, 1
0.0001613, 0, 0, 0, 1, 1, 1, 1, 1
0.0001758, 0, 0, 1, 1, 1, 1, 1, 1
0.0001917, 0, 0, 1, 1, 1, 0, 1, 1
0.0002061, 0, 0, 0, 1, 1, 0, 1, 1
0.0002223, 0, 0, 0, 1, 1, 1, 1, 1
0.0002366, 0, 0, 1, 1, 1, 1, 1, 1
0.0002527, 0, 0, 1, 1, 1, 0, 1, 1
0.0002671, 0, 0, 0, 1, 1, 0, 1, 1
0.0002833, 0, 0, 0, 1, 1, 1, 1, 1
0.0002976, 0, 0, 1, 1, 1, 1, 1, 1
0.0003138, 0, 0, 1, 1, 1, 0, 1, 1
0.0003281, 0, 0, 0, 1, 1, 0, 1, 1
0.0003444, 0, 0, 0, 1, 1, 1, 1, 1
0.0003586, 0, 0, 1, 1, 1, 1, 1, 1
0.0003748, 0, 0, 1, 1, 1, 0, 1, 1
0.0003891, 0, 0, 0, 1, 1, 0, 1, 1
0.0004054, 0, 0, 0, 1, 1, 1, 1, 1
0.0004196, 0, 0, 1, 1, 1, 1, 1, 1
0.0004358, 0, 0, 1, 1, 1, 0, 1, 1
0.0004503, 0, 0, 0, 1, 1, 0, 1, 1
0.0004665, 0, 0, 0, 1, 1, 1, 1, 1
0.0004810, 0, 0, 1, 1, 1, 1, 1, 1
0.0004969, 0, 0, 1, 1, 1, 0, 1, 1
0.0005117, 0, 0, 0, 1, 1, 0, 1, 1
0.0005275, 0, 0, 0, 1, 1, 1, 1, 1
0.0005424, 0, 0, 1, 1, 1, 1, 1, 1
0.0005579, 0, 0, 1, 1, 1, 0, 1, 1
0.0005721, 0, 0, 0, 1, 1, 0, 1, 1
0.0005885, 0, 0, 0, 1, 1, 1, 1, 1
0.0006027, 0, 0, 1, 1, 1, 1, 1, 1
0.0006190, 0, 0, 1, 1, 1, 0, 1, 1
0.0006331, 0, 0, 0, 1, 1, 0, 1, 1
0.0006496, 0, 0, 0, 1, 1, 1, 1, 1
0.0006636, 0, 0, 1, 1, 1, 1, 1, 1
0.0006800, 0, 0, 1, 1, 1, 0, 1, 1
0.0006941, 0, 0, 0, 1, 1, 0, 1, 1
0.0007106, 0, 0, 0, 1, 1, 1, 1, 1
0.0007246, 0, 0, 1, 1, 1, 1, 1, 1
0.0007410, 0, 0, 1, 1, 1, 0, 1, 1
0.0007553, 0, 0, 0, 1, 1, 0, 1, 1
0.0007717, 0, 0, 0, 1, 1, 1, 1, 1
0.0007856, 0, 0, 1, 1, 1, 1, 1, 1
0.0008021, 0, 0, 1, 1, 1, 0, 1, 1
0.0008161, 0, 0, 0, 1, 1, 0, 1, 1
0.0008327, 0, 0, 0, 1, 1, 1, 1, 1
0.0008466, 0, 0, 1, 1, 1, 1, 1, 1
0.0008631, 0, 0, 1, 1, 1, 0, 1, 1
0.0008773, 0, 0, 0, 1, 1, 0, 1, 1
0.0008937, 0, 0, 0, 1, 1, 1, 1, 1
0.0009080, 0, 0, 1, 1, 1, 1, 1, 1
0.0009242, 0, 0, 1, 1, 1, 0, 1, 1
0.0009387, 0, 0, 0, 1, 1, 0, 1, 1
0.0009548, 0, 0, 0, 1, 1, 1, 1, 1
0.0009693, 0, 0, 1, 1, 1, 1, 1, 1
0.0009852, 0, 0, 1, 1, 1, 0, 1, 1
0.0010000, 0, 0, 0, 1, 1, 0, 1, 1
0.0010158, 0, 0, 0, 1, 1, 1, 1, 1
0.0010297, 0, 0, 1, 1, 1, 1, 1, 1
0.0010462, 0, 0, 1, 1, 1, 0, 1, 1
0.0010604, 0, 0, 0, 1, 1, 0, 1, 1
0.0010769, 0, 0, 0, 1, 1, 1, 1, 1
0.0010907, 0, 0, 1, 1, 1, 1, 1, 1
0.0011073, 0, 0, 1, 1, 1, 0, 1, 1
0.0011212, 0, 0, 0, 1, 1, 0, 1, 1
0.0011379, 0, 0, 0, 1, 1, 1, 1, 1
0.0011523, 0, 0, 1, 1, 1, 1, 1, 1
0.0011683, 0, 0, 1, 1, 1, 0, 1, 1
0.0011830, 0, 0, 0, 1, 1, 0, 1, 1
0.0011989, 0, 0, 0, 1, 1, 1, 1, 1
0.0012127, 0, 0, 1, 1, 1, 1, 1, 1
0.0012294, 0, 0, 1, 1, 1, 0, 1, 1
0.0012434, 0, 0, 0, 1, 1, 0, 1, 1
0.0012600, 0, 0, 0, 1, 1, 1, 1, 1
0.0012737, 0, 0, 1, 1, 1, 1, 1, 1
0.0012904, 0, 0, 1, 1, 1, 0, 1, 1
0.0013042, 0, 0, 0, 1, 1, 0, 1, 1
0.0013210, 0, 0, 0, 1, 1, 1, 1, 1
0.0013347, 0, 0, 1, 1, 1, 1, 1, 1
0.0013514, 0, 0, 1, 1, 1, 0, 1, 1
0.0013652, 0, 0, 0, 1, 1, 0, 1, 1
0.0013821, 0, 0, 0, 1, 1, 1, 1, 1
0.0013959, 0, 0, 1, 1, 1, 1, 1, 1
0.0014125, 0, 0, 1, 1, 1, 0, 1, 1
0.0014262, 0, 0, 0, 1, 1, 0, 1, 1
0.0014431, 0, 0, 0, 1, 1, 1, 1, 1
0.0014567, 0, 0, 1, 1, 1, 1, 1, 1
0.0014735, 0, 0, 1, 1, 1, 0, 1, 1
0.0014873, 0, 0, 0, 1, 1, 0, 1, 1
0.0015041, 0, 0, 0, 1, 1, 1, 1, 1
0.0015177, 0, 0, 1, 1, 1, 1, 1, 1
0.0015346, 0, 0, 1, 1, 1, 0, 1, 1
0.0015482, 0, 0, 0, 1, 1, 0, 1, 1
0.0015652, 0, 0, 0, 1, 1, 1, 1, 1
0.0015787, 0, 0, 1, 1, 1, 1, 1, 1
0.0015956, 0, 0, 1, 1, 1, 0, 1, 1
0.0016092, 0, 0, 0, 1, 1, 0, 1, 1
0.0016262, 0, 0, 0, 1, 1, 1, 1, 1
0.0016397, 0, 0, 1, 1, 1, 1, 1, 1
0.0016566, 0, 0, 1, 1, 1, 0, 1, 1
0.0016704, 0, 0, 0, 1, 1, 0, 1, 1
0.0016872, 0, 0, 0, 1, 1, 1, 1, 1
0.0017010, 0, 0, 1, 1, 1, 1, 1, 1
0.0017177, 0, 0, 1, 1, 1, 0, 1, 1
0.0017317, 0, 0, 0, 1, 1, 0, 1, 1
0.0017483, 0, 0, 0, 1, 1, 1, 1, 1
0.0017624, 0, 0, 1, 1, 1, 1, 1, 1
0.0017787, 0, 0, 1, 1, 1, 0, 1, 1
0.0017931, 0, 0, 0, 1, 1, 0, 1, 1
0.0018093, 0, 0, 0, 1, 1, 1, 1, 1
0.0018228, 0, 0, 1, 1, 1, 1, 1, 1
0.0018398, 0, 0, 1, 1, 1, 0, 1, 1
0.0018532, 0, 0, 0, 1, 1, 0, 1, 1
0.0018704, 0, 0, 0, 1, 1, 1, 1, 1
0.0018837, 0, 0, 1, 1, 1, 1, 1, 1
0.0019008, 0, 0, 1, 1, 1, 0, 1, 1
0.0019143, 0, 0, 0, 1, 1, 0, 1, 1
0.0019314, 0, 0, 0, 1, 1, 1, 1, 1
0.0019448, 0, 0, 1, 1, 1, 1, 1, 1
0.0019618, 0, 0, 1, 1, 1, 0, 1, 1
0.0019753, 0, 0, 0, 1, 1, 0, 1, 1
0.0019924, 0, 0, 0, 1, 1, 1, 1, 1
0.0020058, 0, 0, 1, 1, 1, 1, 1, 1
0.0020229, 0, 0, 1, 1, 1, 0, 1, 1
0.0020363, 0, 0, 0, 1, 1, 0, 1, 1
0.0020535, 0, 0, 0, 1, 1, 1, 1, 1
0.0020668, 0, 0, 1, 1, 1, 1, 1, 1
0.0020839, 0, 0, 1, 1, 1, 0, 1, 1
0.0020973, 0, 0, 0, 1, 1, 0, 1, 1
0.0021145, 0, 0, 0, 1, 1, 1, 1, 1
0.0021280, 0, 0, 1, 1, 1, 1, 1, 1
0.0021450, 0, 0, 1, 1, 1, 0, 1, 1
0.0021587, 0, 0, 0, 1, 1, 0, 1, 1
0.0021756, 0, 0, 0, 1, 1, 1, 1, 1
0.0021888, 0, 0, 1, 1, 1, 1, 1, 1
0.0022060, 0, 0, 1, 1, 1, 0, 1, 1
0.0022193, 0, 0, 0, 1, 1, 0, 1, 1
0.0022366, 0, 0, 0, 1, 1, 1, 1, 1
0.0022498, 0, 0, 1, 1, 1, 1, 1, 1
0.0022670, 0, 0, 1, 1, 1, 0, 1, 1
0.0022803, 0, 0, 0, 1, 1, 0, 1, 1
0.0022976, 0, 0, 0, 1, 1, 1, 1, 1
0.0023110, 0, 0, 1, 1, 1, 1, 1, 1
0.0023281, 0, 0, 1, 1, 1, 0, 1, 1
0.0023417, 0, 0, 0, 1, 1, 0, 1, 1
0.0023587, 0, 0, 0, 1, 1, 1, 1, 1
0.0023724, 0, 0, 1, 1, 1, 1, 1, 1
0.0023891, 0, 0, 1, 1, 1, 0, 1, 1
0.0024031, 0, 0, 0, 1, 1, 0, 1, 1
0.0024197, 0, 0, 0, 1, 1, 1, 1, 1
0.0024328, 0, 0, 1, 1, 1, 1, 1, 1
0.0024501, 0, 0, 1, 1, 1, 0, 1, 1
0.0024634, 0, 0, 0, 1, 1, 0, 1, 1
0.0024808, 0, 0, 0, 1, 1, 1, 1, 1
0.0024938, 0, 0, 1, 1, 1, 1, 1, 1
0.0025112, 0, 0, 1, 1, 1, 0, 1, 1
0.0025243, 0, 0, 0, 1, 1, 0, 1, 1
0.0025418, 0, 0, 0, 1, 1, 1, 1, 1
0.0025548, 0, 0, 1, 1, 1, 1, 1, 1
0.0025722, 0, 0, 1, 1, 1, 0, 1, 1
0.0025853, 0, 0, 0, 1, 1, 0, 1, 1
0.0026028, 0, 0, 0, 1, 1, 1, 1, 1
0.0026159, 0, 0, 1, 1, 1, 1, 1, 1
0.0026333, 0, 0, 1, 1, 1, 0, 1, 1
0.0026463, 0, 0, 0, 1, 1, 0, 1, 1
0.0026639, 0, 0, 0, 1, 1, 1, 1, 1
0.0026768, 0, 0, 1, 1, 1, 1, 1, 1
0.0026943, 0, 0, 1, 1, 1, 0, 1, 1
0.0027073, 0, 0, 0, 1, 1, 0, 1, 1
0.0027249, 0, 0, 0, 1, 1, 1, 1, 1
0.0027378, 0, 0, 1, 1, 1, 1, 1, 1
0.0027553, 0, 0, 1, 1, 1, 0, 1, 1
0.0027683, 0, 0, 0, 1, 1, 0, 1, 1
0.0027860, 0, 0, 0, 1, 1, 1, 1, 1
0.0027988, 0, 0, 1, 1, 1, 1, 1, 1
0.0028164, 0, 0, 1, 1, 1, 0, 1, 1
0.0028293, 0, 0, 0, 1, 1, 0, 1, 1
0.0028452, 0, 0, 0, 0, 1, 0, 1, 1
0.0028470, 0, 0, 0, 0, 1, 1, 1, 1
0.0028601, 0, 0, 1, 0, 1, 1, 1, 1
0.0028609, 0, 0, 1, 1, 1, 1, 1, 1
0.0028757, 0, 0, 1, 0, 1, 1, 1, 1
0.0028774, 0, 0, 1, 0, 1, 0, 1, 1
0.0028904, 0, 0, 0, 0, 1, 0, 1, 1
0.0028911, 0, 0, 0, 1, 1, 0, 1, 1
0.0029062, 0, 0, 0, 0, 1, 0, 1, 1
0.0029080, 0, 0, 0, 0, 1, 1, 1, 1
0.0029209, 0, 0, 1, 0, 1, 1, 1, 1
0.0029216, 0, 0, 1, 1, 1, 1, 1, 1
0.0029229, 0, 0, 1, 1, 0, 1, 1, 1
0.0029374, 0, 0, 1, 0, 0, 1, 1, 1
0.0029385, 0, 0, 1, 0, 0, 0, 1, 1
0.0029515, 0, 0, 0, 0, 0, 0, 1, 1
0.0029522, 0, 0, 0, 1, 0, 0, 1, 1
0.0029672, 0, 0, 0, 0, 0, 0, 1, 1
0.0029691, 0, 0, 0, 0, 0, 1, 1, 1
0.0029822, 0, 0, 1, 0, 0, 1, 1, 1
0.0029829, 0, 0, 1, 1, 0, 1, 1, 1
0.0029977, 0, 0, 1, 0, 0, 1, 1, 1
0.0029995, 0, 0, 1, 0, 0, 0, 1, 1
0.0030124, 0, 0, 0, 0, 0, 0, 1, 1
0.0030131, 0, 0, 0, 1, 0, 0, 1, 1
0.0030282, 0, 0, 0, 0, 0, 0, 1, 1
0.0030301, 0, 0, 0, 0, 0, 1, 1, 1
0.0030429, 0, 0, 1, 0, 0, 1, 1, 1
0.0030436, 0, 0, 1, 1, 0, 1, 1, 1
0.0030589, 0, 0, 1, 0, 0, 1, 1, 1
0.0030605, 0, 0, 1, 0, 0, 0, 1, 1
0.0030734, 0, 0, 0, 0, 0, 0, 1, 1
0.0030741, 0, 0, 0, 1, 0, 0, 1, 1
0.0030896, 0, 0, 0, 0, 0, 0, 1, 1
0.0030912, 0, 0, 0, 0, 0, 1, 1, 1
0.0031046, 0, 0, 1, 0, 0, 1, 1, 1
0.0031054, 0, 0, 1, 1, 0, 1, 1, 1
0.0031197, 0, 0, 1, 0, 0, 1, 1, 1
0.0031216, 0, 0, 1, 0, 0, 0, 1, 1
0.0031344, 0, 0, 0, 0, 0, 0, 1, 1
0.0031351, 0, 0, 0, 1, 0, 0, 1, 1
0.0031362, 0, 0, 0, 1, 1, 0, 1, 1
0.0031502, 0, 0, 0, 0, 1, 0, 1, 1
0.0031522, 0, 0, 0, 0, 1, 1, 1, 1
0.0031649, 0, 0, 1, 0, 1, 1, 1, 1
0.0031656, 0, 0, 1, 1, 1, 1, 1, 1
0.0031809, 0, 0, 1, 0, 1, 1, 1, 1
0.0031826, 0, 0, 1, 0, 1, 0, 1, 1
0.0031958, 0, 0, 0, 0, 1, 0, 1, 1
0.0031966, 0, 0, 0, 1, 1, 0, 1, 1
0.0032112, 0, 0, 0, 0, 1, 0, 1, 1
0.0032132, 0, 0, 0, 0, 1, 1, 1, 1
0.0032259, 0, 0, 1, 0, 1, 1, 1, 1
0.0032266, 0, 0, 1, 1, 1, 1, 1, 1
0.0032279, 0, 0, 1, 1, 0, 1, 1, 1
0.0032417, 0, 0, 1, 0, 0, 1, 1, 1
0.0032437, 0, 0, 1, 0, 0, 0, 1, 1
0.0032564, 0, 0, 0, 0, 0, 0, 1, 1
0.0032571, 0, 0, 0, 1, 0, 0, 1, 1
0.0032582, 0, 0, 0, 1, 1, 0, 1, 1
0.0032722, 0, 0, 0, 0, 1, 0, 1, 1
0.0032743, 0, 0, 0, 0, 1, 1, 1, 1
0.0032869, 0, 0, 1, 0, 1, 1, 1, 1
0.0032876, 0, 0, 1, 1, 1, 1, 1, 1
0.0033027, 0, 0, 1, 0, 1, 1, 1, 1
0.0033047, 0, 0, 1, 0, 1, 0, 1, 1
0.0033177, 0, 0, 0, 0, 1, 0, 1, 1
0.0033185, 0, 0, 0, 1, 1, 0, 1, 1
0.0033332, 0, 0, 0, 0, 1, 0, 1, 1
0.0033353, 0, 0, 0, 0, 1, 1, 1, 1
0.0033479, 0, 0, 1, 0, 1, 1, 1, 1
0.0033487, 0, 0, 1, 1, 1, 1, 1, 1
0.0033499, 0, 0, 1, 1, 0, 1, 1, 1
0.0033637, 0, 0, 1, 0, 0, 1, 1, 1
0.0033657, 0, 0, 1, 0, 0, 0, 1, 1
0.0033787, 0, 0, 0, 0, 0, 0, 1, 1
0.0033794, 0, 0, 0, 1, 0, 0, 1, 1
0.0033805, 0, 0, 0, 1, 1, 0, 1, 1
0.0033950, 0, 0, 0, 0, 1, 0, 1, 1
0.0033964, 0, 0, 0, 0, 1, 1, 1, 1
0.0034091, 0, 0, 1, 0, 1, 1, 1, 1
0.0034098, 0, 0, 1, 1, 1, 1, 1, 1
0.0034111, 0, 0, 1, 1, 0, 1, 1, 1
0.0034247, 0, 0, 1, 0, 0, 1, 1, 1
0.0034268, 0, 0, 1, 0, 0, 0, 1, 1
0.0034398, 0, 0, 0, 0, 0, 0, 1, 1
0.0034405, 0, 0, 0, 1, 0, 0, 1, 1
0.0034552, 0, 0, 0, 0, 0, 0, 1, 1
0.0034574, 0, 0, 0, 0, 0, 1, 1, 1
0.0034699, 0, 0, 1, 0, 0, 1, 1, 1
0.0034707, 0, 0, 1, 1, 0, 1, 1, 1
0.0034859, 0, 0, 1, 0, 0, 1, 1, 1
0.0034878, 0, 0, 1, 0, 0, 0, 1, 1
0.0035004, 0, 0, 0, 0, 0, 0, 1, 1
0.0035012, 0, 0, 0, 1, 0, 0, 1, 1
0.0035165, 0, 0, 0, 0, 0, 0, 1, 1
0.0035184, 0, 0, 0, 0, 0, 1, 1, 1
0.0035309, 0, 0, 1, 0, 0, 1, 1, 1
0.0035317, 0, 0, 1, 1, 0, 1, 1, 1
0.0035472, 0, 0, 1, 0, 0, 1, 1, 1
0.0035489, 0, 0, 1, 0, 0, 0, 1, 1
0.0035622, 0, 0, 0, 0, 0, 0, 1, 1
0.0035630, 0, 0, 0, 1, 0, 0, 1, 1
0.0035772, 0, 0, 0, 0, 0, 0, 1, 1
0.0035795, 0, 0, 0, 0, 0, 1, 1, 1
0.0035919, 0, 0, 1, 0, 0, 1, 1, 1
0.0035927, 0, 0, 1, 1, 0, 1, 1, 1
0.0036077, 0, 0, 1, 0, 0, 1, 1, 1
0.0036099, 0, 0, 1, 0, 0, 0, 1, 1
0.0036224, 0, 0, 0, 0, 0, 0, 1, 1
0.0036232, 0, 0, 0, 1, 0, 0, 1, 1
0.0036382, 0, 0, 0, 0, 0, 0, 1, 1
0.0036405, 0, 0, 0, 0, 0, 1, 1, 1
0.0036531, 0, 0, 1, 0, 0, 1, 1, 1
0.0036538, 0, 0, 1, 1, 0, 1, 1, 1
0.0036696, 0, 0, 1, 0, 0, 1, 1, 1
0.0036709, 0, 0, 1, 0, 0, 0, 1, 1
0.0036837, 0, 0, 0, 0, 0, 0, 1, 1
0.0036844, 0, 0, 0, 1, 0, 0, 1, 1
0.0036993, 0, 0, 0, 0, 0, 0, 1, 1
0.0037015, 0, 0, 0, 0, 0, 1, 1, 1
0.0037144, 0, 0, 1, 0, 0, 1, 1, 1
0.0037151, 0, 0, 1, 1, 0, 1, 1, 1
0.0037298, 0, 0, 1, 0, 0, 1, 1, 1
0.0037320, 0, 0, 1, 0, 0, 0, 1, 1
0.0037444, 0, 0, 0, 0, 0, 0, 1, 1
0.0037452, 0, 0, 0, 1, 0, 0, 1, 1
0.0037604, 0, 0, 0, 0, 0, 0, 1, 1
0.0037626, 0, 0, 0, 0, 0, 1, 1, 1
0.0037749, 0, 0, 1, 0, 0, 1, 1, 1
0.0037757, 0, 0, 1, 1, 0, 1, 1, 1
0.0037908, 0, 0, 1, 0, 0, 1, 1, 1
0.0037930, 0, 0, 1, 0, 0, 0, 1, 1
0.0038055, 0, 0, 0, 0, 0, 0, 1, 1
0.0038062, 0, 0, 0, 1, 0, 0, 1, 1
0.0038218, 0, 0, 0, 0, 0, 0, 1, 1
0.0038236, 0, 0, 0, 0, 0, 1, 1, 1
0.0038368, 0, 0, 1, 0, 0, 1, 1, 1
0.0038376, 0, 0, 1, 1, 0, 1, 1, 1
0.0038525, 0, 0, 1, 0, 0, 1, 1, 1
0.0038541, 0, 0, 1, 0, 0, 0, 1, 1
0.0038665, 0, 0, 0, 0, 0, 0, 1, 1
0.0038673, 0, 0, 0, 1, 0, 0, 1, 1
0.0038823, 0, 0, 0, 0, 0, 0, 1, 1
0.0038847, 0, 0, 0, 0, 0, 1, 1, 1
0.0038972, 0, 0, 1, 0, 0, 1, 1, 1
0.0038980, 0, 0, 1, 1, 0, 1, 1, 1
0.0039128, 0, 0, 1, 0, 0, 1, 1, 1
0.0039151, 0, 0, 1, 0, 0, 0, 1, 1
0.0039275, 0, 0, 0, 0, 0, 0, 1, 1
0.0039282, 0, 0, 0, 1, 0, 0, 1, 1
0.0039433, 0, 0, 0, 0, 0, 0, 1, 1
0.0039457, 0, 0, 0, 0, 0, 1, 1, 1
0.0039580, 0, 0, 1, 0, 0, 1, 1, 1
0.0039587, 0, 0, 1, 1, 0, 1, 1, 1
0.0039739, 0, 0, 1, 0, 0, 1, 1, 1
0.0039761, 0, 0, 1, 0, 0, 0, 1, 1
0.0039885, 0, 0, 0, 0, 0, 0, 1, 1
0.0039892, 0, 0, 0, 1, 0, 0, 1, 1
0.0040046, 0, 0, 0, 0, 0, 0, 1, 1
0.0040067, 0, 0, 0, 0, 0, 1, 1, 1
0.0040197, 0, 0, 1, 0, 0, 1, 1, 1
0.0040204, 0, 0, 1, 1, 0, 1, 1, 1
0.0040348, 0, 0, 1, 0, 0, 1, 1, 1
0.0040372, 0, 0, 1, 0, 0, 0, 1, 1
0.0040495, 0, 0, 0, 0, 0, 0, 1, 1
0.0040502, 0, 0, 0, 1, 0, 0, 1, 1
0.0040653, 0, 0, 0, 0, 0, 0, 1, 1
0.0040678, 0, 0, 0, 0, 0, 1, 1, 1
0.0040800, 0, 0, 1, 0, 0, 1, 1, 1
0.0040807, 0, 0, 1, 1, 0, 1, 1, 1
0.0040958, 0, 0, 1, 0, 0, 1, 1, 1
0.0040982, 0, 0, 1, 0, 0, 0, 1, 1
0.0041105, 0, 0, 0, 0, 0, 0, 1, 1
0.0041112, 0, 0, 0, 1, 0, 0, 1, 1
0.0041123, 0, 0, 0, 1, 1, 0, 1, 1
0.0041269, 0, 0, 0, 0, 1, 0, 1, 1
0.0041288, 0, 0, 0, 0, 1, 1, 1, 1
0.0041410, 0, 0, 1, 0, 1, 1, 1, 1
0.0041417, 0, 0, 1, 1, 1, 1, 1, 1
0.0041568, 0, 0, 1, 0, 1, 1, 1, 1
0.0041593, 0, 0, 1, 0, 1, 0, 1, 1
0.0041715, 0, 0, 0, 0, 1, 0, 1, 1
0.0041722, 0, 0, 0, 1, 1, 0, 1, 1
0.0041873, 0, 0, 0, 0, 1, 0, 1, 1
0.0041899, 0, 0, 0, 0, 1, 1, 1, 1
0.0042020, 0, 0, 1, 0, 1, 1, 1, 1
0.0042027, 0, 0, 1, 1, 1, 1, 1, 1
0.0042179, 0, 0, 1, 0, 1, 1, 1, 1
0.0042203, 0, 0, 1, 0, 1, 0, 1, 1
0.0042329, 0, 0, 0, 0, 1, 0, 1, 1
0.0042337, 0, 0, 0, 1, 1, 0, 1, 1
0.0042483, 0, 0, 0, 0, 1, 0, 1, 1
0.0042509, 0, 0, 0, 0, 1, 1, 1, 1
0.0042630, 0, 0, 1, 0, 1, 1, 1, 1
0.0042637, 0, 0, 1, 1, 1, 1, 1, 1
0.0042650, 0, 0, 1, 1, 0, 1, 1, 1
0.0042788, 0, 0, 1, 0, 0, 1, 1, 1
0.0042813, 0, 0, 1, 0, 0, 0, 1, 1
0.0042935, 0, 0, 0, 0, 0, 0, 1, 1
0.0042943, 0, 0, 0, 1, 0, 0, 1, 1
0.0042953, 0, 0, 0, 1, 1, 0, 1, 1
0.0043093, 0, 0, 0, 0, 1, 0, 1, 1
0.0043119, 0, 0, 0, 0, 1, 1, 1, 1
0.0043240, 0, 0, 1, 0, 1, 1, 1, 1
0.0043248, 0, 0, 1, 1, 1, 1, 1, 1
0.0043398, 0, 0, 1, 0, 1, 1, 1, 1
0.0043424, 0, 0, 1, 0, 1, 0, 1, 1
0.0043548, 0, 0, 0, 0, 1, 0, 1, 1
0.0043556, 0, 0, 0, 1, 1, 0, 1, 1
0.0043703, 0, 0, 0, 0, 1, 0, 1, 1
0.0043730, 0, 0, 0, 0, 1, 1, 1, 1
0.0043850, 0, 0, 1, 0, 1, 1, 1, 1
0.0043858, 0, 0, 1, 1, 1, 1, 1, 1
0.0044008, 0, 0, 1, 0, 1, 1, 1, 1
0.0044034, 0, 0, 1, 0, 1, 0, 1, 1
0.0044156, 0, 0, 0, 0, 1, 0, 1, 1
0.0044163, 0, 0, 0, 1, 1, 0, 1, 1
0.0044176, 0, 0, 0, 1, 0, 0, 1, 1
0.0044321, 0, 0, 0, 0, 0, 0, 1, 1
0.0044340, 0, 0, 0, 0, 0, 1, 1, 1
0.0044462, 0, 0, 1, 0, 0, 1, 1, 1
0.0044470, 0, 0, 1, 1, 0, 1, 1, 1
0.0044618, 0, 0, 1, 0, 0, 1, 1, 1
0.0044644, 0, 0, 1, 0, 0, 0, 1, 1
0.0044769, 0, 0, 0, 0, 0, 0, 1, 1
0.0044776, 0, 0, 0, 1, 0, 0, 1, 1
0.0044787, 0, 0, 0, 1, 1, 0, 1, 1
0.0044924, 0, 0, 0, 0, 1, 0, 1, 1
0.0044951, 0, 0, 0, 0, 1, 1, 1, 1
0.0045070, 0, 0, 1, 0, 1, 1, 1, 1
0.0045078, 0, 0, 1, 1, 1, 1, 1, 1
0.0045090, 0, 0, 1, 1, 0, 1, 1, 1
0.0045228, 0, 0, 1, 0, 0, 1, 1, 1
0.0045255, 0, 0, 1, 0, 0, 0, 1, 1
0.0045375, 0, 0, 0, 0, 0, 0, 1, 1
0.0045383, 0, 0, 0, 1, 0, 0, 1, 1
0.0045534, 0, 0, 0, 0, 0, 0, 1, 1
0.0045561, 0, 0, 0, 0, 0, 1, 1, 1
0.0045680, 0, 0, 1, 0, 0, 1, 1, 1
0.0045688, 0, 0, 1, 1, 0, 1, 1, 1
0.0045841, 0, 0, 1, 0, 0, 1, 1, 1
0.0045865, 0, 0, 1, 0, 0, 0, 1, 1
0.0045992, 0, 0, 0, 0, 0, 0, 1, 1
0.0045999, 0, 0, 0, 1, 0, 0, 1, 1
0.0046143, 0, 0, 0, 0, 0, 0, 1, 1
0.0046171, 0, 0, 0, 0, 0, 1, 1, 1
0.0046290, 0, 0, 1, 0, 0, 1, 1, 1
0.0046298, 0, 0, 1, 1, 0, 1, 1, 1
0.0046449, 0, 0, 1, 0, 0, 1, 1, 1
0.0046476, 0, 0, 1, 0, 0, 0, 1, 1
0.0046596, 0, 0, 0, 0, 0, 0, 1, 1
0.0046604, 0, 0, 0, 1, 0, 0, 1, 1
0.0046754, 0, 0, 0, 0, 0, 0, 1, 1
0.0046782, 0, 0, 0, 0, 0, 1, 1, 1
0.0046900, 0, 0, 1, 0, 0, 1, 1, 1
0.0046908, 0, 0, 1, 1, 0, 1, 1, 1
0.0047065, 0, 0, 1, 0, 0, 1, 1, 1
0.0047086, 0, 0, 1, 0, 0, 0, 1, 1
0.0047206, 0, 0, 0, 0, 0, 0, 1, 1
0.0047214, 0, 0, 0, 1, 0, 0, 1, 1
0.0047364, 0, 0, 0, 0, 0, 0, 1, 1
0.0047392, 0, 0, 0, 0, 0, 1, 1, 1
0.0047513, 0, 0, 1, 0, 0, 1, 1, 1
0.0047520, 0, 0, 1, 1, 0, 1, 1, 1
0.0047669, 0, 0, 1, 0, 0, 1, 1, 1
0.0047696, 0, 0, 1, 0, 0, 0, 1, 1
0.0047816, 0, 0, 0, 0, 0, 0, 1, 1
0.0047823, 0, 0, 0, 1, 0, 0, 1, 1
0.0047974, 0, 0, 0, 0, 0, 0, 1, 1
0.0048003, 0, 0, 0, 0, 0, 1, 1, 1
0.0048121, 0, 0, 1, 0, 0, 1, 1, 1
0.0048128, 0, 0, 1, 1, 0, 1, 1, 1
0.0048280, 0, 0, 1, 0, 0, 1, 1, 1
0.0048307, 0, 0, 1, 0, 0, 0, 1, 1
0.0048426, 0, 0, 0, 0, 0, 0, 1, 1
0.0048433, 0, 0, 0, 1, 0, 0, 1, 1
0.0048584, 0, 0, 0, 0, 0, 0, 1, 1
0.0048613, 0, 0, 0, 0, 0, 1, 1, 1
0.0048731, 0, 0, 1, 0, 0, 1, 1, 1
0.0048738, 0, 0, 1, 1, 0, 1, 1, 1
0.0048749, 0, 0, 1, 1, 1, 1, 1, 1
0.0048892, 0, 0, 1, 0, 1, 1, 1, 1
0.0048917, 0, 0, 1, 0, 1, 0, 1, 1
0.0049043, 0, 0, 0, 0, 1, 0, 1, 1
0.0049050, 0, 0, 0, 1, 1, 0, 1, 1
0.0049063, 0, 0, 0, 1, 0, 0, 1, 1
0.0049194, 0, 0, 0, 0, 0, 0, 1, 1
0.0049223, 0, 0, 0, 0, 0, 1, 1, 1
0.0049341, 0, 0, 1, 0, 0, 1, 1, 1
0.0049348, 0, 0, 1, 1, 0, 1, 1, 1
0.0049499, 0, 0, 1, 0, 0, 1, 1, 1
0.0049528, 0, 0, 1, 0, 0, 0, 1, 1
0.0049646, 0, 0, 0, 0, 0, 0, 1, 1
0.0049653, 0, 0, 0, 1, 0, 0, 1, 1
0.0049804, 0, 0, 0, 0, 0, 0, 1, 1
0.0049834, 0, 0, 0, 0, 0, 1, 1, 1
0.0049951, 0, 0, 1, 0, 0, 1, 1, 1
0.0049958, 0, 0, 1, 1, 0, 1, 1, 1
0.0050116, 0, 0, 1, 0, 0, 1, 1, 1
0.0050138, 0, 0, 1, 0, 0, 0, 1, 1
0.0050257, 0, 0, 0, 0, 0, 0, 1, 1
0.0050265, 0, 0, 0, 1, 0, 0, 1, 1
0.0050414, 0, 0, 0, 0, 0, 0, 1, 1
0.0050444, 0, 0, 0, 0, 0, 1, 1, 1
0.0050564, 0, 0, 1, 0, 0, 1, 1, 1
0.0050571, 0, 0, 1, 1, 0, 1, 1, 1
0.0050719, 0, 0, 1, 0, 0, 1, 1, 1
0.0050748, 0, 0, 1, 0, 0, 0, 1, 1
0.0050866, 0, 0, 0, 0, 0, 0, 1, 1
0.0050873, 0, 0, 0, 1, 0, 0, 1, 1
0.0051025, 0, 0, 0, 0, 0, 0, 1, 1
0.0051055, 0, 0, 0, 0, 0, 1, 1, 1
0.0051171, 0, 0, 1, 0, 0, 1, 1, 1
0.0051178, 0, 0, 1, 1, 0, 1, 1, 1
0.0051331, 0, 0, 1, 0, 0, 1, 1, 1
0.0051359, 0, 0, 1, 0, 0, 0, 1, 1
0.0051476, 0, 0, 0, 0, 0, 0, 1, 1
0.0051483, 0, 0, 0, 1, 0, 0, 1, 1
0.0051638, 0, 0, 0, 0, 0, 0, 1, 1
0.0051665, 0, 0, 0, 0, 0, 1, 1, 1
0.0051788, 0, 0, 1, 0, 0, 1, 1, 1
0.0051796, 0, 0, 1, 1, 0, 1, 1, 1
0.0051807, 0, 0, 1, 1, 1, 1, 1, 1
0.0051939, 0, 0, 1, 0, 1, 1, 1, 1
0.0051969, 0, 0, 1, 0, 1, 0, 1, 1
0.0052086, 0, 0, 0, 0, 1, 0, 1, 1
0.0052093, 0, 0, 0, 1, 1, 0, 1, 1
0.0052245, 0, 0, 0, 0, 1, 0, 1, 1
0.0052275, 0, 0, 0, 0, 1, 1, 1, 1
0.0052393, 0, 0, 1, 0, 1, 1, 1, 1
0.0052401, 0, 0, 1, 1, 1, 1, 1, 1
0.0052413, 0, 0, 1, 1, 0, 1, 1, 1
0.0052550, 0, 0, 1, 0, 0, 1, 1, 1
0.0052580, 0, 0, 1, 0, 0, 0, 1, 1
0.0052700, 0, 0, 0, 0, 0, 0, 1, 1
0.0052708, 0, 0, 0, 1, 0, 0, 1, 1
0.0052719, 0, 0, 0, 1, 1, 0, 1, 1
0.0052854, 0, 0, 0, 0, 1, 0, 1, 1
0.0052886, 0, 0, 0, 0, 1, 1, 1, 1
0.0053001, 0, 0, 1, 0, 1, 1, 1, 1
0.0053009, 0, 0, 1, 1, 1, 1, 1, 1
0.0053159, 0, 0, 1, 0, 1, 1, 1, 1
0.0053190, 0, 0, 1, 0, 1, 0, 1, 1
0.0053308, 0, 0, 0, 0, 1, 0, 1, 1
0.0053315, 0, 0, 0, 1, 1, 0, 1, 1
0.0053472, 0, 0, 0, 0, 1, 0, 1, 1
0.0053496, 0, 0, 0, 0, 1, 1, 1, 1
0.0053612, 0, 0, 1, 0, 1, 1, 1, 1
0.0053620, 0, 0, 1, 1, 1, 1, 1, 1
0.0053632, 0, 0, 1, 1, 0, 1, 1, 1
0.0053769, 0, 0, 1, 0, 0, 1, 1, 1
0.0053800, 0, 0, 1, 0, 0, 0, 1, 1
0.0053919, 0, 0, 0, 0, 0, 0, 1, 1
0.0053927, 0, 0, 0, 1, 0, 0, 1, 1
0.0054074, 0, 0, 0, 0, 0, 0, 1, 1
0.0054107, 0, 0, 0, 0, 0, 1, 1, 1
0.0054221, 0, 0, 1, 0, 0, 1, 1, 1
0.0054229, 0, 0, 1, 1, 0, 1, 1, 1
0.0054380, 0, 0, 1, 0, 0, 1, 1, 1
0.0054411, 0, 0, 1, 0, 0, 0, 1, 1
0.0054526, 0, 0, 0, 0, 0, 0, 1, 1
0.0054534, 0, 0, 0, 1, 0, 0, 1, 1
0.0054544, 0, 0, 0, 1, 1, 0, 1, 1
0.0054684, 0, 0, 0, 0, 1, 0, 1, 1
0.0054717, 0, 0, 0, 0, 1, 1, 1, 1
0.0054832, 0, 0, 1, 0, 1, 1, 1, 1
0.0054839, 0, 0, 1, 1, 1, 1, 1, 1
0.0054989, 0, 0, 1, 0, 1, 1, 1, 1
0.0055021, 0, 0, 1, 0, 1, 0, 1, 1
0.0055140, 0, 0, 0, 0, 1, 0, 1, 1
0.0055148, 0, 0, 0, 1, 1, 0, 1, 1
0.0055160, 0, 0, 0, 1, 0, 0, 1, 1
0.0055294, 0, 0, 0, 0, 0, 0, 1, 1
0.0055327, 0, 0, 0, 0, 0, 1, 1, 1
0.0055441, 0, 0, 1, 0, 0, 1, 1, 1
0.0055449, 0, 0, 1, 1, 0, 1, 1, 1
0.0055459, 0, 0, 1, 1, 1, 1, 1, 1
0.0055599, 0, 0, 1, 0, 1, 1, 1, 1
0.0055632, 0, 0, 1, 0, 1, 0, 1, 1
0.0055746, 0, 0, 0, 0, 1, 0, 1, 1
0.0055754, 0, 0, 0, 1, 1, 0, 1, 1
0.0055913, 0, 0, 0, 0, 1, 0, 1, 1
0.0055938, 0, 0, 0, 0, 1, 1, 1, 1
0.0056054, 0, 0, 1, 0, 1, 1, 1, 1
0.0056061, 0, 0, 1, 1, 1, 1, 1, 1
0.0056074, 0, 0, 1, 1, 0, 1, 1, 1
0.0056210, 0, 0, 1, 0, 0, 1, 1, 1
0.0056242, 0, 0, 1, 0, 0, 0, 1, 1
0.0056361, 0, 0, 0, 0, 0, 0, 1, 1
0.0056368, 0, 0, 0, 1, 0, 0, 1, 1
0.0056515, 0, 0, 0, 0, 0, 0, 1, 1
0.0056548, 0, 0, 0, 0, 0, 1, 1, 1
0.0056661, 0, 0, 1, 0, 0, 1, 1, 1
0.0056669, 0, 0, 1, 1, 0, 1, 1, 1
0.0056821, 0, 0, 1, 0, 0, 1, 1, 1
0.0056852, 0, 0, 1, 0, 0, 0, 1, 1
0.0056966, 0, 0, 0, 0, 0, 0, 1, 1
