Time[s], Channel 0, Channel 1, Channel 3, Channel 4, Channel 5, Channel 6, Channel 7
0.0000000, 0, 1, 1, 1, 0, 1, 1
0.0000268, 0, 1, 1, 1, 1, 1, 1
0.0000572, 0, 1, 1, 1, 0, 1, 1
0.0000878, 0, 1, 1, 1, 1, 1, 1
0.0001182, 0, 1, 1, 1, 0, 1, 1
0.0001488, 0, 1, 1, 1, 1, 1, 1
0.0001793, 0, 1, 1, 1, 0, 1, 1
0.0002099, 0, 1, 1, 1, 1, 1, 1
0.0002403, 0, 1, 1, 1, 0, 1, 1
0.0002709, 0, 1, 1, 1, 1, 1, 1
0.0003013, 0, 1, 1, 1, 0, 1, 1
0.0003320, 0, 1, 1, 1, 1, 1, 1
0.0003624, 0, 1, 1, 1, 0, 1, 1
0.0003930, 0, 1, 1, 1, 1, 1, 1
0.0004234, 0, 1, 1, 1, 0, 1, 1
0.0004540, 0, 1, 1, 1, 1, 1, 1
0.0004845, 0, 1, 1, 1, 0, 1, 1
0.0005151, 0, 1, 1, 1, 1, 1, 1
0.0005455, 0, 1, 1, 1, 0, 1, 1
0.0005761, 0, 1, 1, 1, 1, 1, 1
0.0006065, 0, 1, 1, 1, 0, 1, 1
0.0006372, 0, 1, 1, 1, 1, 1, 1
0.0006676, 0, 1, 1, 1, 0, 1, 1
0.0006982, 0, 1, 1, 1, 1, 1, 1
0.0007286, 0, 1, 1, 1, 0, 1, 1
0.0007592, 0, 1, 1, 1, 1, 1, 1
0.0007897, 0, 1, 1, 1, 0, 1, 1
0.0008203, 0, 1, 1, 1, 1, 1, 1
0.0008507, 0, 1, 1, 1, 0, 1, 1
0.0008813, 0, 1, 1, 1, 1, 1, 1
0.0009117, 0, 1, 1, 1, 0, 1, 1
0.0009423, 0, 1, 1, 1, 1, 1, 1
0.0009728, 0, 1, 1, 1, 0, 1, 1
0.0010034, 0, 1, 1, 1, 1, 1, 1
0.0010338, 0, 1, 1, 1, 0, 1, 1
0.0010644, 0, 1, 1, 1, 1, 1, 1
0.0010948, 0, 1, 1, 1, 0, 1, 1
0.0011255, 0, 1, 1, 1, 1, 1, 1
0.0011559, 0, 1, 1, 1, 0, 1, 1
0.0011865, 0, 1, 1, 1, 1, 1, 1
0.0012169, 0, 1, 1, 1, 0, 1, 1
0.0012475, 0, 1, 1, 1, 1, 1, 1
0.0012780, 0, 1, 1, 1, 0, 1, 1
0.0013086, 0, 1, 1, 1, 1, 1, 1
0.0013390, 0, 1, 1, 1, 0, 1, 1
0.0013696, 0, 1, 1, 1, 1, 1, 1
0.0014000, 0, 1, 1, 1, 0, 1, 1
0.0014307, 0, 1, 1, 1, 1, 1, 1
0.0014611, 0, 1, 1, 1, 0, 1, 1
0.0014917, 0, 1, 1, 1, 1, 1, 1
0.0015221, 0, 1, 1, 1, 0, 1, 1
0.0015527, 0, 1, 1, 1, 1, 1, 1
0.0015832, 0, 1, 1, 1, 0, 1, 1
0.0016138, 0, 1, 1, 1, 1, 1, 1
0.0016442, 0, 1, 1, 1, 0, 1, 1
0.0016748, 0, 1, 1, 1, 1, 1, 1
0.0017052, 0, 1, 1, 1, 0, 1, 1
0.0017359, 0, 1, 1, 1, 1, 1, 1
0.0017663, 0, 1, 1, 1, 0, 1, 1
0.0017969, 0, 1, 1, 1, 1, 1, 1
0.0018273, 0, 1, 1, 1, 0, 1, 1
0.0018579, 0, 1, 1, 1, 1, 1, 1
0.0018884, 0, 1, 1, 1, 0, 1, 1
0.0019190, 0, 1, 1, 1, 1, 1, 1
0.0019494, 0, 1, 1, 1, 0, 1, 1
0.0019800, 0, 1, 1, 1, 1, 1, 1
0.0020104, 0, 1, 1, 1, 0, 1, 1
0.0020411, 0, 1, 1, 1, 1, 1, 1
0.0020715, 0, 1, 1, 1, 0, 1, 1
0.0021021, 0, 1, 1, 1, 1, 1, 1
0.0021325, 0, 1, 1, 1, 0, 1, 1
0.0021631, 0, 1, 1, 1, 1, 1, 1
0.0021936, 0, 1, 1, 1, 0, 1, 1
0.0022242, 0, 1, 1, 1, 1, 1, 1
0.0022546, 0, 1, 1, 1, 0, 1, 1
0.0022852, 0, 1, 1, 1, 1, 1, 1
0.0023156, 0, 1, 1, 1, 0, 1, 1
0.0023463, 0, 1, 1, 1, 1, 1, 1
0.0023767, 0, 1, 1, 1, 0, 1, 1
0.0024073, 0, 1, 1, 1, 1, 1, 1
0.0024377, 0, 1, 1, 1, 0, 1, 1
0.0024683, 0, 1, 1, 1, 1, 1, 1
0.0024988, 0, 1, 1, 1, 0, 1, 1
0.0025294, 0, 1, 1, 1, 1, 1, 1
0.0025598, 0, 1, 1, 1, 0, 1, 1
0.0025904, 0, 1, 1, 1, 1, 1, 1
0.0026208, 0, 1, 1, 1, 0, 1, 1
0.0026515, 0, 1, 1, 1, 1, 1, 1
0.0026819, 0, 1, 1, 1, 0, 1, 1
0.0027125, 0, 1, 1, 1, 1, 1, 1
0.0027429, 0, 1, 1, 1, 0, 1, 1
0.0027735, 0, 1, 1, 1, 1, 1, 1
0.0028040, 0, 1, 1, 1, 0, 1, 1
0.0028346, 0, 1, 1, 1, 1, 1, 1
0.0028650, 0, 1, 1, 1, 0, 1, 1
0.0028956, 0, 1, 1, 1, 1, 1, 1
0.0029260, 0, 1, 1, 1, 0, 1, 1
0.0029566, 0, 1, 1, 1, 1, 1, 1
0.0029871, 0, 1, 1, 1, 0, 1, 1
0.0030177, 0, 1, 1, 1, 1, 1, 1
0.0030481, 0, 1, 1, 1, 0, 1, 1
0.0030787, 0, 1, 1, 1, 1, 1, 1
0.0031091, 0, 1, 1, 1, 0, 1, 1
0.0031398, 0, 1, 1, 1, 1, 1, 1
0.0031702, 0, 1, 1, 1, 0, 1, 1
0.0032008, 0, 1, 1, 1, 1, 1, 1
0.0032312, 0, 1, 1, 1, 0, 1, 1
0.0032618, 0, 1, 1, 1, 1, 1, 1
0.0032923, 0, 1, 1, 1, 0, 1, 1
0.0033229, 0, 1, 1, 1, 1, 1, 1
0.0033533, 0, 1, 1, 1, 0, 1, 1
0.0033839, 0, 1, 1, 1, 1, 1, 1
0.0034143, 0, 1, 1, 1, 0, 1, 1
0.0034450, 0, 1, 1, 1, 1, 1, 1
0.0034754, 0, 1, 1, 1, 0, 1, 1
0.0035060, 0, 1, 1, 1, 1, 1, 1
0.0035364, 0, 1, 1, 1, 0, 1, 1
0.0035670, 0, 1, 1, 1, 1, 1, 1
0.0035975, 0, 1, 1, 1, 0, 1, 1
0.0036281, 0, 1, 1, 1, 1, 1, 1
0.0036585, 0, 1, 1, 1, 0, 1, 1
0.0036891, 0, 1, 1, 1, 1, 1, 1
0.0037195, 0, 1, 1, 1, 0, 1, 1
0.0037502, 0, 1, 1, 1, 1, 1, 1
0.0037806, 0, 1, 1, 1, 0, 1, 1
0.0038112, 0, 1, 1, 1, 1, 1, 1
0.0038416, 0, 1, 1, 1, 0, 1, 1
0.0038722, 0, 1, 1, 1, 1, 1, 1
0.0039027, 0, 1, 1, 1, 0, 1, 1
0.0039333, 0, 1, 1, 1, 1, 1, 1
0.0039637, 0, 1, 1, 1, 0, 1, 1
0.0039943, 0, 1, 1, 1, 1, 1, 1
0.0040247, 0, 1, 1, 1, 0, 1, 1
0.0040554, 0, 1, 1, 1, 1, 1, 1
0.0040858, 0, 1, 1, 1, 0, 1, 1
0.0041164, 0, 1, 1, 1, 1, 1, 1
0.0041468, 0, 1, 1, 1, 0, 1, 1
0.0041774, 0, 1, 1, 1, 1, 1, 1
0.0042079, 0, 1, 1, 1, 0, 1, 1
0.0042385, 0, 1, 1, 1, 1, 1, 1
0.0042689, 0, 1, 1, 1, 0, 1, 1
0.0042995, 0, 1, 1, 1, 1, 1, 1
0.0043299, 0, 1, 1, 1, 0, 1, 1
0.0043606, 0, 1, 1, 1, 1, 1, 1
0.0043910, 0, 1, 1, 1, 0, 1, 1
0.0044216, 0, 1, 1, 1, 1, 1, 1
0.0044520, 0, 1, 1, 1, 0, 1, 1
0.0044826, 0, 1, 1, 1, 1, 1, 1
0.0045131, 0, 1, 1, 1, 0, 1, 1
0.0045437, 0, 1, 1, 1, 1, 1, 1
0.0045741, 0, 1, 1, 1, 0, 1, 1
0.0046047, 0, 1, 1, 1, 1, 1, 1
0.0046351, 0, 1, 1, 1, 0, 1, 1
0.0046658, 0, 1, 1, 1, 1, 1, 1
0.0046962, 0, 1, 1, 1, 0, 1, 1
0.0047268, 0, 1, 1, 1, 1, 1, 1
0.0047572, 0, 1, 1, 1, 0, 1, 1
0.0047878, 0, 1, 1, 1, 1, 1, 1
0.0048183, 0, 1, 1, 1, 0, 1, 1
0.0048489, 0, 1, 1, 1, 1, 1, 1
0.0048793, 0, 1, 1, 1, 0, 1, 1
0.0049099, 0, 1, 1, 1, 1, 1, 1
0.0049403, 0, 1, 1, 1, 0, 1, 1
0.0049709, 0, 1, 1, 1, 1, 1, 1
0.0050014, 0, 1, 1, 1, 0, 1, 1
0.0050320, 0, 1, 1, 1, 1, 1, 1
0.0050624, 0, 1, 1, 1, 0, 1, 1
0.0050930, 0, 1, 1, 1, 1, 1, 1
0.0051234, 0, 1, 1, 1, 0, 1, 1
0.0051541, 0, 1, 1, 1, 1, 1, 1
0.0051845, 0, 1, 1, 1, 0, 1, 1
0.0052151, 0, 1, 1, 1, 1, 1, 1
0.0052455, 0, 1, 1, 1, 0, 1, 1
0.0052761, 0, 1, 1, 1, 1, 1, 1
0.0053066, 0, 1, 1, 1, 0, 1, 1
0.0053372, 0, 1, 1, 1, 1, 1, 1
0.0053676, 0, 1, 1, 1, 0, 1, 1
0.0053982, 0, 1, 1, 1, 1, 1, 1
0.0054286, 0, 1, 1, 1, 0, 1, 1
0.0054593, 0, 1, 1, 1, 1, 1, 1
0.0054897, 0, 1, 1, 1, 0, 1, 1
0.0055203, 0, 1, 1, 1, 1, 1, 1
0.0055507, 0, 1, 1, 1, 0, 1, 1
0.0055813, 0, 1, 1, 1, 1, 1, 1
0.0056118, 0, 1, 1, 1, 0, 1, 1
0.0056424, 0, 1, 1, 1, 1, 1, 1
0.0056728, 0, 1, 1, 1, 0, 1, 1
0.0057034, 0, 1, 1, 1, 1, 1, 1
0.0057338, 0, 1, 1, 1, 0, 1, 1
0.0057645, 0, 1, 1, 1, 1, 1, 1
0.0057949, 0, 1, 1, 1, 0, 1, 1
0.0058255, 0, 1, 1, 1, 1, 1, 1
0.0058559, 0, 1, 1, 1, 0, 1, 1
0.0058865, 0, 1, 1, 1, 1, 1, 1
0.0059170, 0, 1, 1, 1, 0, 1, 1
0.0059476, 0, 1, 1, 1, 1, 1, 1
0.0059780, 0, 1, 1, 1, 0, 1, 1
0.0060086, 0, 1, 1, 1, 1, 1, 1
0.0060390, 0, 1, 1, 1, 0, 1, 1
0.0060697, 0, 1, 1, 1, 1, 1, 1
0.0061001, 0, 1, 1, 1, 0, 1, 1
0.0061307, 0, 1, 1, 1, 1, 1, 1
0.0061611, 0, 1, 1, 1, 0, 1, 1
0.0061917, 0, 1, 1, 1, 1, 1, 1
0.0062222, 0, 1, 1, 1, 0, 1, 1
0.0062528, 0, 1, 1, 1, 1, 1, 1
0.0062832, 0, 1, 1, 1, 0, 1, 1
0.0063138, 0, 1, 1, 1, 1, 1, 1
0.0063442, 0, 1, 1, 1, 0, 1, 1
0.0063749, 0, 1, 1, 1, 1, 1, 1
0.0064053, 0, 1, 1, 1, 0, 1, 1
0.0064359, 0, 1, 1, 1, 1, 1, 1
0.0064663, 0, 1, 1, 1, 0, 1, 1
0.0064969, 0, 1, 1, 1, 1, 1, 1
0.0065274, 0, 1, 1, 1, 0, 1, 1
0.0065580, 0, 1, 1, 1, 1, 1, 1
0.0065884, 0, 1, 1, 1, 0, 1, 1
0.0066190, 0, 1, 1, 1, 1, 1, 1
0.0066494, 0, 1, 1, 1, 0, 1, 1
0.0066801, 0, 1, 1, 1, 1, 1, 1
0.0067105, 0, 1, 1, 1, 0, 1, 1
0.0067411, 0, 1, 1, 1, 1, 1, 1
0.0067715, 0, 1, 1, 1, 0, 1, 1
0.0068021, 0, 1, 1, 1, 1, 1, 1
0.0068326, 0, 1, 1, 1, 0, 1, 1
0.0068632, 0, 1, 1, 1, 1, 1, 1
0.0068936, 0, 1, 1, 1, 0, 1, 1
0.0069242, 0, 1, 1, 1, 1, 1, 1
0.0069546, 0, 1, 1, 1, 0, 1, 1
0.0069853, 0, 1, 1, 1, 1, 1, 1
0.0070157, 0, 1, 1, 1, 0, 1, 1
0.0070463, 0, 1, 1, 1, 1, 1, 1
0.0070767, 0, 1, 1, 1, 0, 1, 1
0.0071073, 0, 1, 1, 1, 1, 1, 1
0.0071378, 0, 1, 1, 1, 0, 1, 1
0.0071684, 0, 1, 1, 1, 1, 1, 1
0.0071988, 0, 1, 1, 1, 0, 1, 1
0.0072294, 0, 1, 1, 1, 1, 1, 1
0.0072598, 0, 1, 1, 1, 0, 1, 1
0.0072904, 0, 1, 1, 1, 1, 1, 1
0.0073209, 0, 1, 1, 1, 0, 1, 1
0.0073515, 0, 1, 1, 1, 1, 1, 1
0.0073819, 0, 1, 1, 1, 0, 1, 1
0.0074125, 0, 1, 1, 1, 1, 1, 1
0.0074429, 0, 1, 1, 1, 0, 1, 1
0.0074736, 0, 1, 1, 1, 1, 1, 1
0.0075040, 0, 1, 1, 1, 0, 1, 1
0.0075346, 0, 1, 1, 1, 1, 1, 1
0.0075650, 0, 1, 1, 1, 0, 1, 1
0.0075956, 0, 1, 1, 1, 1, 1, 1
0.0076261, 0, 1, 1, 1, 0, 1, 1
0.0076567, 0, 1, 1, 1, 1, 1, 1
0.0076871, 0, 1, 1, 1, 0, 1, 1
0.0077177, 0, 1, 1, 1, 1, 1, 1
0.0077481, 0, 1, 1, 1, 0, 1, 1
0.0077788, 0, 1, 1, 1, 1, 1, 1
0.0078092, 0, 1, 1, 1, 0, 1, 1
0.0078398, 0, 1, 1, 1, 1, 1, 1
0.0078702, 0, 1, 1, 1, 0, 1, 1
0.0079008, 0, 1, 1, 1, 1, 1, 1
0.0079313, 0, 1, 1, 1, 0, 1, 1
0.0079619, 0, 1, 1, 1, 1, 1, 1
0.0079923, 0, 1, 1, 1, 0, 1, 1
0.0080229, 0, 1, 1, 1, 1, 1, 1
0.0080533, 0, 1, 1, 1, 0, 1, 1
0.0080840, 0, 1, 1, 1, 1, 1, 1
0.0081144, 0, 1, 1, 1, 0, 1, 1
0.0081450, 0, 1, 1, 1, 1, 1, 1
0.0081754, 0, 1, 1, 1, 0, 1, 1
0.0082060, 0, 1, 1, 1, 1, 1, 1
0.0082365, 0, 1, 1, 1, 0, 1, 1
0.0082671, 0, 1, 1, 1, 1, 1, 1
0.0082975, 0, 1, 1, 1, 0, 1, 1
0.0083281, 0, 1, 1, 1, 1, 1, 1
0.0083585, 0, 1, 1, 1, 0, 1, 1
0.0083892, 0, 1, 1, 1, 1, 1, 1
0.0084196, 0, 1, 1, 1, 0, 1, 1
0.0084502, 0, 1, 1, 1, 1, 1, 1
0.0084806, 0, 1, 1, 1, 0, 1, 1
0.0085112, 0, 1, 1, 1, 1, 1, 1
0.0085417, 0, 1, 1, 1, 0, 1, 1
0.0085723, 0, 1, 1, 1, 1, 1, 1
0.0086027, 0, 1, 1, 1, 0, 1, 1
0.0086333, 0, 1, 1, 1, 1, 1, 1
0.0086637, 0, 1, 1, 1, 0, 1, 1
0.0086944, 0, 1, 1, 1, 1, 1, 1
0.0087248, 0, 1, 1, 1, 0, 1, 1
0.0087554, 0, 1, 1, 1, 1, 1, 1
0.0087858, 0, 1, 1, 1, 0, 1, 1
0.0088164, 0, 1, 1, 1, 1, 1, 1
0.0088469, 0, 1, 1, 1, 0, 1, 1
0.0088775, 0, 1, 1, 1, 1, 1, 1
0.0089079, 0, 1, 1, 1, 0, 1, 1
0.0089385, 0, 1, 1, 1, 1, 1, 1
0.0089689, 0, 1, 1, 1, 0, 1, 1
0.0089996, 0, 1, 1, 1, 1, 1, 1
0.0090300, 0, 1, 1, 1, 0, 1, 1
0.0090606, 0, 1, 1, 1, 1, 1, 1
0.0090910, 0, 1, 1, 1, 0, 1, 1
0.0091216, 0, 1, 1, 1, 1, 1, 1
0.0091521, 0, 1, 1, 1, 0, 1, 1
0.0091827, 0, 1, 1, 1, 1, 1, 1
0.0092131, 0, 1, 1, 1, 0, 1, 1
0.0092437, 0, 1, 1, 1, 1, 1, 1
0.0092741, 0, 1, 1, 1, 0, 1, 1
0.0093047, 0, 1, 1, 1, 1, 1, 1
0.0093352, 0, 1, 1, 1, 0, 1, 1
0.0093658, 0, 1, 1, 1, 1, 1, 1
0.0093962, 0, 1, 1, 1, 0, 1, 1
0.0094268, 0, 1, 1, 1, 1, 1, 1
0.0094572, 0, 1, 1, 1, 0, 1, 1
0.0094879, 0, 1, 1, 1, 1, 1, 1
0.0095183, 0, 1, 1, 1, 0, 1, 1
0.0095489, 0, 1, 1, 1, 1, 1, 1
0.0095793, 0, 1, 1, 1, 0, 1, 1
0.0096099, 0, 1, 1, 1, 1, 1, 1
0.0096404, 0, 1, 1, 1, 0, 1, 1
0.0096710, 0, 1, 1, 1, 1, 1, 1
0.0097014, 0, 1, 1, 1, 0, 1, 1
0.0097320, 0, 1, 1, 1, 1, 1, 1
0.0097624, 0, 1, 1, 1, 0, 1, 1
0.0097931, 0, 1, 1, 1, 1, 1, 1
0.0098235, 0, 1, 1, 1, 0, 1, 1
0.0098541, 0, 1, 1, 1, 1, 1, 1
0.0098845, 0, 1, 1, 1, 0, 1, 1
0.0099151, 0, 1, 1, 1, 1, 1, 1
0.0099456, 0, 1, 1, 1, 0, 1, 1
0.0099762, 0, 1, 1, 1, 1, 1, 1
0.0100066, 0, 1, 1, 1, 0, 1, 1
0.0100372, 0, 1, 1, 1, 1, 1, 1
0.0100676, 0, 1, 1, 1, 0, 1, 1
0.0100983, 0, 1, 1, 1, 1, 1, 1
0.0101287, 0, 1, 1, 1, 0, 1, 1
0.0101593, 0, 1, 1, 1, 1, 1, 1
0.0101897, 0, 1, 1, 1, 0, 1, 1
0.0102203, 0, 1, 1, 1, 1, 1, 1
0.0102508, 0, 1, 1, 1, 0, 1, 1
0.0102814, 0, 1, 1, 1, 1, 1, 1
0.0103118, 0, 1, 1, 1, 0, 1, 1
0.0103424, 0, 1, 1, 1, 1, 1, 1
0.0103728, 0, 1, 1, 1, 0, 1, 1
0.0104035, 0, 1, 1, 1, 1, 1, 1
0.0104339, 0, 1, 1, 1, 0, 1, 1
0.0104645, 0, 1, 1, 1, 1, 1, 1
0.0104949, 0, 1, 1, 1, 0, 1, 1
0.0105255, 0, 1, 1, 1, 1, 1, 1
0.0105560, 0, 1, 1, 1, 0, 1, 1
0.0105866, 0, 1, 1, 1, 1, 1, 1
0.0106170, 0, 1, 1, 1, 0, 1, 1
0.0106476, 0, 1, 1, 1, 1, 1, 1
0.0106780, 0, 1, 1, 1, 0, 1, 1
0.0107087, 0, 1, 1, 1, 1, 1, 1
0.0107391, 0, 1, 1, 1, 0, 1, 1
0.0107697, 0, 1, 1, 1, 1, 1, 1
0.0108001, 0, 1, 1, 1, 0, 1, 1
0.0108307, 0, 1, 1, 1, 1, 1, 1
0.0108612, 0, 1, 1, 1, 0, 1, 1
0.0108918, 0, 1, 1, 1, 1, 1, 1
0.0109222, 0, 1, 1, 1, 0, 1, 1
0.0109528, 0, 1, 1, 1, 1, 1, 1
0.0109832, 0, 1, 1, 1, 0, 1, 1
0.0110139, 0, 1, 1, 1, 1, 1, 1
0.0110443, 0, 1, 1, 1, 0, 1, 1
0.0110749, 0, 1, 1, 1, 1, 1, 1
0.0111053, 0, 1, 1, 1, 0, 1, 1
0.0111359, 0, 1, 1, 1, 1, 1, 1
0.0111664, 0, 1, 1, 1, 0, 1, 1
0.0111970, 0, 1, 1, 1, 1, 1, 1
0.0112274, 0, 1, 1, 1, 0, 1, 1
0.0112580, 0, 1, 1, 1, 1, 1, 1
0.0112884, 0, 1, 1, 1, 0, 1, 1
0.0113190, 0, 1, 1, 1, 1, 1, 1
0.0113495, 0, 1, 1, 1, 0, 1, 1
0.0113801, 0, 1, 1, 1, 1, 1, 1
0.0114105, 0, 1, 1, 1, 0, 1, 1
0.0114411, 0, 1, 1, 1, 1, 1, 1
0.0114715, 0, 1, 1, 1, 0, 1, 1
0.0115022, 0, 1, 1, 1, 1, 1, 1
0.0115326, 0, 1, 1, 1, 0, 1, 1
0.0115632, 0, 1, 1, 1, 1, 1, 1
0.0115936, 0, 1, 1, 1, 0, 1, 1
0.0116242, 0, 1, 1, 1, 1, 1, 1
0.0116547, 0, 1, 1, 1, 0, 1, 1
0.0116853, 0, 1, 1, 1, 1, 1, 1
0.0117157, 0, 1, 1, 1, 0, 1, 1
0.0117463, 0, 1, 1, 1, 1, 1, 1
0.0117767, 0, 1, 1, 1, 0, 1, 1
0.0118074, 0, 1, 1, 1, 1, 1, 1
0.0118378, 0, 1, 1, 1, 0, 1, 1
0.0118684, 0, 1, 1, 1, 1, 1, 1
0.0118988, 0, 1, 1, 1, 0, 1, 1
0.0119294, 0, 1, 1, 1, 1, 1, 1
0.0119599, 0, 1, 1, 1, 0, 1, 1
0.0119905, 0, 1, 1, 1, 1, 1, 1
0.0120209, 0, 1, 1, 1, 0, 1, 1
0.0120515, 0, 1, 1, 1, 1, 1, 1
0.0120819, 0, 1, 1, 1, 0, 1, 1
0.0121126, 0, 1, 1, 1, 1, 1, 1
0.0121430, 0, 1, 1, 1, 0, 1, 1
0.0121736, 0, 1, 1, 1, 1, 1, 1
0.0122040, 0, 1, 1, 1, 0, 1, 1
0.0122346, 0, 1, 1, 1, 1, 1, 1
0.0122651, 0, 1, 1, 1, 0, 1, 1
0.0122957, 0, 1, 1, 1, 1, 1, 1
0.0123261, 0, 1, 1, 1, 0, 1, 1
0.0123567, 0, 1, 1, 1, 1, 1, 1
0.0123871, 0, 1, 1, 1, 0, 1, 1
0.0124178, 0, 1, 1, 1, 1, 1, 1
0.0124482, 0, 1, 1, 1, 0, 1, 1
0.0124788, 0, 1, 1, 1, 1, 1, 1
0.0125092, 0, 1, 1, 1, 0, 1, 1
0.0125398, 0, 1, 1, 1, 1, 1, 1
0.0125703, 0, 1, 1, 1, 0, 1, 1
0.0126009, 0, 1, 1, 1, 1, 1, 1
0.0126313, 0, 1, 1, 1, 0, 1, 1
0.0126619, 0, 1, 1, 1, 1, 1, 1
0.0126923, 0, 1, 1, 1, 0, 1, 1
0.0127230, 0, 1, 1, 1, 1, 1, 1
0.0127534, 0, 1, 1, 1, 0, 1, 1
0.0127840, 0, 1, 1, 1, 1, 1, 1
0.0128144, 0, 1, 1, 1, 0, 1, 1
0.0128450, 0, 1, 1, 1, 1, 1, 1
0.0128755, 0, 1, 1, 1, 0, 1, 1
0.0129061, 0, 1, 1, 1, 1, 1, 1
0.0129365, 0, 1, 1, 1, 0, 1, 1
0.0129671, 0, 1, 1, 1, 1, 1, 1
0.0129975, 0, 1, 1, 1, 0, 1, 1
0.0130282, 0, 1, 1, 1, 1, 1, 1
0.0130586, 0, 1, 1, 1, 0, 1, 1
0.0130892, 0, 1, 1, 1, 1, 1, 1
0.0131196, 0, 1, 1, 1, 0, 1, 1
0.0131502, 0, 1, 1, 1, 1, 1, 1
0.0131807, 0, 1, 1, 1, 0, 1, 1
0.0132113, 0, 1, 1, 1, 1, 1, 1
0.0132417, 0, 1, 1, 1, 0, 1, 1
0.0132723, 0, 1, 1, 1, 1, 1, 1
0.0133027, 0, 1, 1, 1, 0, 1, 1
0.0133333, 0, 1, 1, 1, 1, 1, 1
0.0133638, 0, 1, 1, 1, 0, 1, 1
0.0133944, 0, 1, 1, 1, 1, 1, 1
0.0134248, 0, 1, 1, 1, 0, 1, 1
0.0134554, 0, 1, 1, 1, 1, 1, 1
0.0134858, 0, 1, 1, 1, 0, 1, 1
0.0135165, 0, 1, 1, 1, 1, 1, 1
0.0135469, 0, 1, 1, 1, 0, 1, 1
0.0135775, 0, 1, 1, 1, 1, 1, 1
0.0136079, 0, 1, 1, 1, 0, 1, 1
0.0136385, 0, 1, 1, 1, 1, 1, 1
0.0136690, 0, 1, 1, 1, 0, 1, 1
0.0136996, 0, 1, 1, 1, 1, 1, 1
0.0137300, 0, 1, 1, 1, 0, 1, 1
0.0137606, 0, 1, 1, 1, 1, 1, 1
0.0137910, 0, 1, 1, 1, 0, 1, 1
0.0138217, 0, 1, 1, 1, 1, 1, 1
0.0138521, 0, 1, 1, 1, 0, 1, 1
0.0138827, 0, 1, 1, 1, 1, 1, 1
0.0139131, 0, 1, 1, 1, 0, 1, 1
0.0139437, 0, 1, 1, 1, 1, 1, 1
0.0139742, 0, 1, 1, 1, 0, 1, 1
0.0140048, 0, 1, 1, 1, 1, 1, 1
0.0140352, 0, 1, 1, 1, 0, 1, 1
0.0140658, 0, 1, 1, 1, 1, 1, 1
0.0140962, 0, 1, 1, 1, 0, 1, 1
0.0141269, 0, 1, 1, 1, 1, 1, 1
0.0141573, 0, 1, 1, 1, 0, 1, 1
0.0141879, 0, 1, 1, 1, 1, 1, 1
0.0142183, 0, 1, 1, 1, 0, 1, 1
0.0142489, 0, 1, 1, 1, 1, 1, 1
0.0142794, 0, 1, 1, 1, 0, 1, 1
0.0143100, 0, 1, 1, 1, 1, 1, 1
0.0143404, 0, 1, 1, 1, 0, 1, 1
0.0143710, 0, 1, 1, 1, 1, 1, 1
0.0144014, 0, 1, 1, 1, 0, 1, 1
0.0144321, 0, 1, 1, 1, 1, 1, 1
0.0144625, 0, 1, 1, 1, 0, 1, 1
0.0144931, 0, 1, 1, 1, 1, 1, 1
0.0145235, 0, 1, 1, 1, 0, 1, 1
0.0145541, 0, 1, 1, 1, 1, 1, 1
0.0145846, 0, 1, 1, 1, 0, 1, 1
0.0146152, 0, 1, 1, 1, 1, 1, 1
0.0146456, 0, 1, 1, 1, 0, 1, 1
0.0146762, 0, 1, 1, 1, 1, 1, 1
0.0147066, 0, 1, 1, 1, 0, 1, 1
0.0147373, 0, 1, 1, 1, 1, 1, 1
0.0147677, 0, 1, 1, 1, 0, 1, 1
0.0147983, 0, 1, 1, 1, 1, 1, 1
0.0148287, 0, 1, 1, 1, 0, 1, 1
0.0148593, 0, 1, 1, 1, 1, 1, 1
0.0148898, 0, 1, 1, 1, 0, 1, 1
0.0149204, 0, 1, 1, 1, 1, 1, 1
0.0149508, 0, 1, 1, 1, 0, 1, 1
0.0149814, 0, 1, 1, 1, 1, 1, 1
0.0150118, 0, 1, 1, 1, 0, 1, 1
0.0150425, 0, 1, 1, 1, 1, 1, 1
0.0150729, 0, 1, 1, 1, 0, 1, 1
0.0151035, 0, 1, 1, 1, 1, 1, 1
0.0151339, 0, 1, 1, 1, 0, 1, 1
0.0151645, 0, 1, 1, 1, 1, 1, 1
0.0151950, 0, 1, 1, 1, 0, 1, 1
0.0152256, 0, 1, 1, 1, 1, 1, 1
0.0152560, 0, 1, 1, 1, 0, 1, 1
0.0152866, 0, 1, 1, 1, 1, 1, 1
0.0153170, 0, 1, 1, 1, 0, 1, 1
0.0153476, 0, 1, 1, 1, 1, 1, 1
0.0153781, 0, 1, 1, 1, 0, 1, 1
0.0154087, 0, 1, 1, 1, 1, 1, 1
0.0154391, 0, 1, 1, 1, 0, 1, 1
0.0154697, 0, 1, 1, 1, 1, 1, 1
0.0155001, 0, 1, 1, 1, 0, 1, 1
0.0155308, 0, 1, 1, 1, 1, 1, 1
0.0155612, 0, 1, 1, 1, 0, 1, 1
0.0155918, 0, 1, 1, 1, 1, 1, 1
0.0156222, 0, 1, 1, 1, 0, 1, 1
0.0156528, 0, 1, 1, 1, 1, 1, 1
0.0156833, 0, 1, 1, 1, 0, 1, 1
0.0157139, 0, 1, 1, 1, 1, 1, 1
0.0157443, 0, 1, 1, 1, 0, 1, 1
0.0157749, 0, 1, 1, 1, 1, 1, 1
0.0158053, 0, 1, 1, 1, 0, 1, 1
0.0158360, 0, 1, 1, 1, 1, 1, 1
0.0158664, 0, 1, 1, 1, 0, 1, 1
0.0158970, 0, 1, 1, 1, 1, 1, 1
0.0159274, 0, 1, 1, 1, 0, 1, 1
0.0159580, 0, 1, 1, 1, 1, 1, 1
0.0159885, 0, 1, 1, 1, 0, 1, 1
0.0160191, 0, 1, 1, 1, 1, 1, 1
0.0160495, 0, 1, 1, 1, 0, 1, 1
0.0160801, 0, 1, 1, 1, 1, 1, 1
0.0161105, 0, 1, 1, 1, 0, 1, 1
0.0161412, 0, 1, 1, 1, 1, 1, 1
0.0161716, 0, 1, 1, 1, 0, 1, 1
0.0162022, 0, 1, 1, 1, 1, 1, 1
0.0162326, 0, 1, 1, 1, 0, 1, 1
0.0162632, 0, 1, 1, 1, 1, 1, 1
0.0162937, 0, 1, 1, 1, 0, 1, 1
0.0163243, 0, 1, 1, 1, 1, 1, 1
0.0163547, 0, 1, 1, 1, 0, 1, 1
0.0163853, 0, 1, 1, 1, 1, 1, 1
0.0164157, 0, 1, 1, 1, 0, 1, 1
0.0164464, 0, 1, 1, 1, 1, 1, 1
0.0164768, 0, 1, 1, 1, 0, 1, 1
0.0165074, 0, 1, 1, 1, 1, 1, 1
0.0165378, 0, 1, 1, 1, 0, 1, 1
0.0165684, 0, 1, 1, 1, 1, 1, 1
0.0165989, 0, 1, 1, 1, 0, 1, 1
0.0166295, 0, 1, 1, 1, 1, 1, 1
0.0166599, 0, 1, 1, 1, 0, 1, 1
0.0166905, 0, 1, 1, 1, 1, 1, 1
0.0167209, 0, 1, 1, 1, 0, 1, 1
0.0167516, 0, 1, 1, 1, 1, 1, 1
0.0167820, 0, 1, 1, 1, 0, 1, 1
0.0168126, 0, 1, 1, 1, 1, 1, 1
0.0168430, 0, 1, 1, 1, 0, 1, 1
0.0168736, 0, 1, 1, 1, 1, 1, 1
0.0169041, 0, 1, 1, 1, 0, 1, 1
0.0169347, 0, 1, 1, 1, 1, 1, 1
0.0169651, 0, 1, 1, 1, 0, 1, 1
0.0169957, 0, 1, 1, 1, 1, 1, 1
0.0170261, 0, 1, 1, 1, 0, 1, 1
0.0170568, 0, 1, 1, 1, 1, 1, 1
0.0170872, 0, 1, 1, 1, 0, 1, 1
0.0171178, 0, 1, 1, 1, 1, 1, 1
0.0171482, 0, 1, 1, 1, 0, 1, 1
0.0171788, 0, 1, 1, 1, 1, 1, 1
0.0172093, 0, 1, 1, 1, 0, 1, 1
0.0172399, 0, 1, 1, 1, 1, 1, 1
0.0172703, 0, 1, 1, 1, 0, 1, 1
0.0173009, 0, 1, 1, 1, 1, 1, 1
0.0173313, 0, 1, 1, 1, 0, 1, 1
0.0173619, 0, 1, 1, 1, 1, 1, 1
0.0173924, 0, 1, 1, 1, 0, 1, 1
0.0174230, 0, 1, 1, 1, 1, 1, 1
0.0174534, 0, 1, 1, 1, 0, 1, 1
0.0174840, 0, 1, 1, 1, 1, 1, 1
0.0175145, 0, 1, 1, 1, 0, 1, 1
0.0175451, 0, 1, 1, 1, 1, 1, 1
0.0175755, 0, 1, 1, 1, 0, 1, 1
0.0176061, 0, 1, 1, 1, 1, 1, 1
0.0176365, 0, 1, 1, 1, 0, 1, 1
0.0176671, 0, 1, 1, 1, 1, 1, 1
0.0176976, 0, 1, 1, 1, 0, 1, 1
0.0177282, 0, 1, 1, 1, 1, 1, 1
0.0177586, 0, 1, 1, 1, 0, 1, 1
0.0177892, 0, 1, 1, 1, 1, 1, 1
0.0178196, 0, 1, 1, 1, 0, 1, 1
0.0178503, 0, 1, 1, 1, 1, 1, 1
0.0178807, 0, 1, 1, 1, 0, 1, 1
0.0179113, 0, 1, 1, 1, 1, 1, 1
0.0179417, 0, 1, 1, 1, 0, 1, 1
0.0179723, 0, 1, 1, 1, 1, 1, 1
0.0180028, 0, 1, 1, 1, 0, 1, 1
0.0180334, 0, 1, 1, 1, 1, 1, 1
0.0180638, 0, 1, 1, 1, 0, 1, 1
0.0180944, 0, 1, 1, 1, 1, 1, 1
0.0181248, 0, 1, 1, 1, 0, 1, 1
0.0181555, 0, 1, 1, 1, 1, 1, 1
0.0181859, 0, 1, 1, 1, 0, 1, 1
0.0182165, 0, 1, 1, 1, 1, 1, 1
0.0182469, 0, 1, 1, 1, 0, 1, 1
0.0182775, 0, 1, 1, 1, 1, 1, 1
0.0183080, 0, 1, 1, 1, 0, 1, 1
0.0183386, 0, 1, 1, 1, 1, 1, 1
0.0183690, 0, 1, 1, 1, 0, 1, 1
0.0183996, 0, 1, 1, 1, 1, 1, 1
0.0184300, 0, 1, 1, 1, 0, 1, 1
0.0184607, 0, 1, 1, 1, 1, 1, 1
0.0184911, 0, 1, 1, 1, 0, 1, 1
0.0185217, 0, 1, 1, 1, 1, 1, 1
0.0185521, 0, 1, 1, 1, 0, 1, 1
0.0185827, 0, 1, 1, 1, 1, 1, 1
0.0186132, 0, 1, 1, 1, 0, 1, 1
0.0186438, 0, 1, 1, 1, 1, 1, 1
0.0186742, 0, 1, 1, 1, 0, 1, 1
0.0187048, 0, 1, 1, 1, 1, 1, 1
0.0187352, 0, 1, 1, 1, 0, 1, 1
0.0187659, 0, 1, 1, 1, 1, 1, 1
0.0187963, 0, 1, 1, 1, 0, 1, 1
0.0188269, 0, 1, 1, 1, 1, 1, 1
0.0188573, 0, 1, 1, 1, 0, 1, 1
0.0188879, 0, 1, 1, 1, 1, 1, 1
0.0189184, 0, 1, 1, 1, 0, 1, 1
0.0189490, 0, 1, 1, 1, 1, 1, 1
0.0189794, 0, 1, 1, 1, 0, 1, 1
0.0190100, 0, 1, 1, 1, 1, 1, 1
0.0190404, 0, 1, 1, 1, 0, 1, 1
0.0190711, 0, 1, 1, 1, 1, 1, 1
0.0191015, 0, 1, 1, 1, 0, 1, 1
0.0191321, 0, 1, 1, 1, 1, 1, 1
0.0191625, 0, 1, 1, 1, 0, 1, 1
0.0191931, 0, 1, 1, 1, 1, 1, 1
0.0192236, 0, 1, 1, 1, 0, 1, 1
0.0192542, 0, 1, 1, 1, 1, 1, 1
0.0192693, 0, 1, 1, 1, 1, 0, 1
0.0192846, 0, 1, 1, 1, 0, 0, 1
0.0192847, 0, 1, 1, 1, 0, 1, 1
0.0192999, 0, 1, 1, 1, 0, 0, 1
0.0193151, 0, 1, 1, 1, 0, 1, 1
0.0193152, 0, 1, 1, 1, 1, 1, 1
0.0193304, 0, 1, 1, 1, 1, 0, 1
0.0193456, 0, 1, 1, 1, 0, 0, 1
0.0193457, 0, 1, 1, 1, 0, 1, 1
0.0193533, 0, 1, 1, 1, 0, 1, 0
